
T2074 000:081 SEGGER J-Link V4.60a Log File (0000ms, 0081ms total)
T2074 000:081 DLL Compiled: Jan 16 2013 17:15:30 (0000ms, 0081ms total)
T2074 000:081 Logging started @ 2014-07-24 17:32 (0000ms, 0081ms total)
T2074 000:081 JLINK_SetWarnOutHandler(...) (0000ms, 0081ms total)
T2074 000:081 JLINK_OpenEx(...)
Firmware: J-Link ARM V8 compiled Jan 31 2018 18:34:52
Hardware: V8.00
S/N: 20080643
Feature(s): RDI,FlashDL,FlashBP,JFlash,GDBFull  returns O.K. (0029ms, 0110ms total)
T2074 000:110 JLINK_SetErrorOutHandler(...) (0000ms, 0110ms total)
T2074 000:110 JLINK_ExecCommand("ProjectFile = "D:\Documents\GitHub\nrf51822_v4.4.1.31827_Backup\Board\pca10001\AtomWear_V1.0\Applications\keil_uvision_projects\AtomWear_DFU\JLinkSettings.ini"", ...)
                JLINK_ExecCommand("map ram 0x20000000 - 0x20001FFF", ...)  returns 0x00 (0000ms, 0000ms total)
                JLINK_AddMirrorAreaEx(Addr = 0x00000000, Size = 0x00000000) (0000ms, 0000ms total)
              Device "NRF51822" selected (256 KB flash, 8 KB RAM).  returns 0x00 (0006ms, 0116ms total)
T2074 000:126 JLINK_ExecCommand("Device = nRF51822_xxAA", ...)
                JLINK_ExecCommand("map ram 0x20000000 - 0x20001FFF", ...)  returns 0x00 (0000ms, 0000ms total)
                JLINK_AddMirrorAreaEx(Addr = 0x00000000, Size = 0x00000000) (0000ms, 0000ms total)
              Device "NRF51822" selected (256 KB flash, 8 KB RAM).  returns 0x00 (0006ms, 0122ms total)
T2074 000:132 JLINK_ExecCommand("DisableConnectionTimeout", ...)  returns 0x00 (0000ms, 0122ms total)
T2074 000:132 JLINK_TIF_Select(JLINKARM_TIF_SWD)  returns 0x00 (0005ms, 0127ms total)
T2074 000:137 JLINK_SetSpeed(2000) (0001ms, 0128ms total)
T2074 000:138 JLINK_GetHardwareVersion()  returns 0x13880 (0000ms, 0128ms total)
T2074 000:138 JLINK_GetDLLVersion()  returns 46001 (0000ms, 0128ms total)
T2074 000:138 JLINK_GetFirmwareString(...) (0000ms, 0128ms total)
T2074 000:163 JLINK_GetDLLVersion()  returns 46001 (0000ms, 0128ms total)
T2074 000:163 JLINK_GetCompileDateTime() (0000ms, 0128ms total)
T2074 000:167 JLINK_GetFirmwareString(...) (0000ms, 0128ms total)
T2074 000:171 JLINK_GetHardwareVersion()  returns 0x13880 (0001ms, 0129ms total)
T2074 000:183 JLINK_GetId() >0x108 TIF>Found SWD-DP with ID 0x0BB11477 >0x35 TIF> >0x0D TIF> >0x28 TIF> >0x0D TIF> >0x28 TIF> >0x35 TIF> >0x35 TIF> >0x0D TIF> >0x28 TIF> >0x35 TIF> >0x35 TIF> >0x35 TIF> >0x35 TIF> >0x0D TIF> >0x28 TIF> >0x0D TIF> >0x28 TIF> >0x0D TIF> >0x28 TIF> >0x35 TIF> >0x35 TIF> >0x35 TIF> >0x0D TIF> >0x28 TIF> >0x0D TIF> >0x28 TIF> >0x35 TIF> >0x35 TIF> >0x0D TIF> >0x28 TIF> >0x35 TIF> >0x35 TIF> >0x0D TIF> >0x28 TIF> >0x0D TIF> >0x28 TIF> >0x0D TIF> >0x28 TIF> >0x35 TIF>
 >0x35 TIF> >0x0D TIF> >0x28 TIF> >0x0D TIF> >0x28 TIF> >0x0D TIF> >0x28 TIF> >0x35 TIF> >0x35 TIF> >0x35 TIF> >0x0D TIF> >0x28 TIF> >0x35 TIF> >0x35 TIF> >0x0D TIF> >0x28 TIF> >0x35 TIF> >0x35 TIF>FPUnit: 4 code (BP) slots and 0 literal slots >0x0D TIF> >0x28 TIF> >0x35 TIF> >0x35 TIF> >0x0D TIF> >0x28 TIF> >0x35 TIF> >0x35 TIF> >0x0D TIF> >0x28 TIF> >0x35 TIF> >0x35 TIF> >0x0D TIF> >0x28 TIF> >0x35 TIF> >0x35 TIF>Found Cortex-M0 r0p0, Little endian. >0x0D TIF> >0x28 TIF> >0x35 TIF>  returns 0x0BB11477
 (0090ms, 0219ms total)
T2074 000:273 JLINK_GetDeviceFamily()  returns 6 (0000ms, 0219ms total)
T2074 000:281 JLINK_ReadMem (0xE00FFFF0, 0x0010 Bytes, ...) -- CPU is running -- CPU_ReadMem(16 bytes @ 0xE00FFFF0) -- Data:  0D 00 00 00 10 00 00 00 05 00 00 00 B1 00 00 00  returns 0x00 (0001ms, 0220ms total)
T2074 000:282 JLINK_ReadMem (0xE00FFFD0, 0x0020 Bytes, ...) -- CPU is running -- CPU_ReadMem(32 bytes @ 0xE00FFFD0) -- Data:  04 00 00 00 00 00 00 00 00 00 00 00 00 00 00 00 ...  returns 0x00 (0001ms, 0221ms total)
T2074 000:283 JLINK_ReadMem (0xE00FF000, 0x0018 Bytes, ...) -- CPU is running -- CPU_ReadMem(24 bytes @ 0xE00FF000) -- Data:  03 F0 F0 FF 03 20 F0 FF 03 30 F0 FF 00 00 00 00 ...  returns 0x00 (0001ms, 0222ms total)
T2074 000:284 JLINK_ReadMemU32(0xE000ED00, 0x0001 Items, ...) -- CPU is running -- CPU_ReadMem(4 bytes @ 0xE000ED00) -- Data:  00 C2 0C 41  returns 0x01 (0001ms, 0223ms total)
T2074 000:285 JLINK_SetResetType(JLINKARM_RESET_TYPE_NORMAL)  returns JLINKARM_RESET_TYPE_NORMAL (0000ms, 0223ms total)
T2074 000:285 JLINK_Reset() -- CPU_WriteMem(4 bytes @ 0xE0002000) (0014ms, 0237ms total)
T2074 000:299 JLINK_Halt()  returns 0x00 (0001ms, 0238ms total)
T2074 000:300 JLINK_IsHalted() -- MA0 is in flash -- Unmirror addr 0x00011D34  returns TRUE (0000ms, 0238ms total)
T2074 000:300 JLINK_ReadMemU32(0xE000EDF0, 0x0001 Items, ...) -- CPU_ReadMem(4 bytes @ 0xE000EDF0) -- Data:  03 00 03 00  returns 0x01 (0000ms, 0238ms total)
T2074 000:301 JLINK_WriteU32(0xE000EDF0, 0xA05F0003) -- CPU_WriteMem(4 bytes @ 0xE000EDF0) -- Invalidate MA0 status  returns 0x00 (0000ms, 0238ms total)
T2074 000:301 JLINK_WriteU32(0xE000EDFC, 0x01000000) -- CPU_WriteMem(4 bytes @ 0xE000EDFC)  returns 0x00 (0001ms, 0239ms total)
T2074 000:317 JLINK_GetHWStatus(...)  returns 0x00 (0002ms, 0241ms total)
T2074 000:331 JLINK_GetNumBPUnits(Type = 0xFFFFFF00)  returns 0x04 (0000ms, 0241ms total)
T2074 000:331 JLINK_GetNumBPUnits(Type = 0xF0)  returns 0x2000 (0000ms, 0241ms total)
T2074 000:331 JLINK_GetNumWPUnits()  returns 0x02 (0000ms, 0241ms total)
T2074 000:347 JLINK_GetSpeed()  returns 0x7D0 (0000ms, 0241ms total)
T2074 000:352 JLINK_ReadMemU32(0xE000E004, 0x0001 Items, ...) -- CPU_ReadMem(4 bytes @ 0xE000E004) -- Data:  00 00 00 00  returns 0x01 (0001ms, 0242ms total)
T2074 000:353 JLINK_Halt()  returns 0x00 (0000ms, 0242ms total)
T2074 000:353 JLINK_IsHalted() -- MA0 is in flash -- Unmirror addr 0x00011D34  returns TRUE (0000ms, 0242ms total)
T2074 000:357 JLINK_WriteMem(0x20000000, 0x0258 Bytes, ...) -- Data:  00 BE 0A E0 0D 78 2D 06 68 40 08 24 40 00 00 D3 ... -- CPU_WriteMem(600 bytes @ 0x20000000)  returns 0x258 (0007ms, 0249ms total)
T2074 000:364 JLINK_WriteReg(R0, 0x00000000)  returns 0x00 (0000ms, 0249ms total)
T2074 000:364 JLINK_WriteReg(R1, 0x00F42400)  returns 0x00 (0000ms, 0249ms total)
T2074 000:364 JLINK_WriteReg(R2, 0x00000001)  returns 0x00 (0000ms, 0249ms total)
T2074 000:364 JLINK_WriteReg(R3, 0x00000000)  returns 0x00 (0000ms, 0249ms total)
T2074 000:364 JLINK_WriteReg(R4, 0x00000000)  returns 0x00 (0000ms, 0249ms total)
T2074 000:364 JLINK_WriteReg(R5, 0x00000000)  returns 0x00 (0000ms, 0249ms total)
T2074 000:364 JLINK_WriteReg(R6, 0x00000000)  returns 0x00 (0000ms, 0249ms total)
T2074 000:364 JLINK_WriteReg(R7, 0x00000000)  returns 0x00 (0000ms, 0249ms total)
T2074 000:364 JLINK_WriteReg(R8, 0x00000000)  returns 0x00 (0000ms, 0249ms total)
T2074 000:364 JLINK_WriteReg(R9, 0x20000254)  returns 0x00 (0000ms, 0249ms total)
T2074 000:364 JLINK_WriteReg(R10, 0x00000000)  returns 0x00 (0000ms, 0249ms total)
T2074 000:364 JLINK_WriteReg(R11, 0x00000000)  returns 0x00 (0000ms, 0249ms total)
T2074 000:364 JLINK_WriteReg(R12, 0x00000000)  returns 0x00 (0000ms, 0249ms total)
T2074 000:364 JLINK_WriteReg(R13, 0x20000800)  returns 0x00 (0000ms, 0249ms total)
T2074 000:364 JLINK_WriteReg(R14, 0x20000001)  returns 0x00 (0000ms, 0249ms total)
T2074 000:364 JLINK_WriteReg(R15, 0x20000028)  returns 0x00 (0000ms, 0249ms total)
T2074 000:364 JLINK_WriteReg(XPSR, 0x01000000)  returns 0x00 (0000ms, 0249ms total)
T2074 000:364 JLINK_WriteReg(MSP, 0x20000800)  returns 0x00 (0000ms, 0249ms total)
T2074 000:364 JLINK_WriteReg(PSP, 0x20000800)  returns 0x00 (0000ms, 0249ms total)
T2074 000:364 JLINK_WriteReg(CFBP, 0x00000000)  returns 0x00 (0000ms, 0249ms total)
T2074 000:364 JLINK_SetBPEx(Addr = 0x20000000, Type = 0xFFFFFFF2) -- CPU_ReadMem(2 bytes @ 0x20000000)  returns 0x00000001 (0001ms, 0250ms total)
T2074 000:365 JLINK_Go() -- CPU_WriteMem(2 bytes @ 0x20000000) -- Invalidate MA0 status -- CPU_WriteMem(4 bytes @ 0xE0002008) -- CPU_WriteMem(4 bytes @ 0xE000200C) -- CPU_WriteMem(4 bytes @ 0xE0002010) -- CPU_WriteMem(4 bytes @ 0xE0002014) (0008ms, 0258ms total)
T2074 000:373 JLINK_IsHalted() -- CPU_ReadMem(2 bytes @ 0x20000000)  returns TRUE (0006ms, 0264ms total)
T2074 000:379 JLINK_ReadReg(R15)  returns 0x20000000 (0000ms, 0258ms total)
T2074 000:379 JLINK_ClrBPEx(BPHandle = 0x00000001)  returns 0x00 (0000ms, 0258ms total)
T2074 000:379 JLINK_ReadReg(R0)  returns 0x00000000 (0000ms, 0258ms total)
T2074 000:380 JLINK_WriteReg(R0, 0x00028000)  returns 0x00 (0000ms, 0258ms total)
T2074 000:380 JLINK_WriteReg(R1, 0x00000400)  returns 0x00 (0000ms, 0258ms total)
T2074 000:380 JLINK_WriteReg(R2, 0x000000FF)  returns 0x00 (0000ms, 0258ms total)
T2074 000:380 JLINK_WriteReg(R3, 0x00000000)  returns 0x00 (0000ms, 0258ms total)
T2074 000:380 JLINK_WriteReg(R4, 0x00000000)  returns 0x00 (0000ms, 0258ms total)
T2074 000:380 JLINK_WriteReg(R5, 0x00000000)  returns 0x00 (0000ms, 0258ms total)
T2074 000:380 JLINK_WriteReg(R6, 0x00000000)  returns 0x00 (0000ms, 0258ms total)
T2074 000:380 JLINK_WriteReg(R7, 0x00000000)  returns 0x00 (0000ms, 0258ms total)
T2074 000:380 JLINK_WriteReg(R8, 0x00000000)  returns 0x00 (0000ms, 0258ms total)
T2074 000:380 JLINK_WriteReg(R9, 0x20000254)  returns 0x00 (0000ms, 0258ms total)
T2074 000:380 JLINK_WriteReg(R10, 0x00000000)  returns 0x00 (0000ms, 0258ms total)
T2074 000:380 JLINK_WriteReg(R11, 0x00000000)  returns 0x00 (0000ms, 0258ms total)
T2074 000:380 JLINK_WriteReg(R12, 0x00000000)  returns 0x00 (0000ms, 0258ms total)
T2074 000:380 JLINK_WriteReg(R13, 0x20000800)  returns 0x00 (0000ms, 0258ms total)
T2074 000:380 JLINK_WriteReg(R14, 0x20000001)  returns 0x00 (0000ms, 0258ms total)
T2074 000:380 JLINK_WriteReg(R15, 0x200001F2)  returns 0x00 (0000ms, 0258ms total)
T2074 000:380 JLINK_WriteReg(XPSR, 0x01000000)  returns 0x00 (0000ms, 0258ms total)
T2074 000:380 JLINK_WriteReg(MSP, 0x20000800)  returns 0x00 (0000ms, 0258ms total)
T2074 000:380 JLINK_WriteReg(PSP, 0x20000800)  returns 0x00 (0000ms, 0258ms total)
T2074 000:380 JLINK_WriteReg(CFBP, 0x00000000)  returns 0x00 (0000ms, 0258ms total)
T2074 000:380 JLINK_SetBPEx(Addr = 0x20000000, Type = 0xFFFFFFF2)  returns 0x00000002 (0000ms, 0258ms total)
T2074 000:380 JLINK_Go() (0003ms, 0261ms total)
T2074 000:383 JLINK_IsHalted() -- CPU_ReadMem(2 bytes @ 0x20000000)  returns TRUE (0005ms, 0266ms total)
T2074 000:388 JLINK_ReadReg(R15)  returns 0x20000000 (0000ms, 0261ms total)
T2074 000:388 JLINK_ClrBPEx(BPHandle = 0x00000002)  returns 0x00 (0000ms, 0261ms total)
T2074 000:388 JLINK_ReadReg(R0)  returns 0x00000000 (0000ms, 0261ms total)
T2074 000:389 JLINK_WriteReg(R0, 0x00028400)  returns 0x00 (0000ms, 0261ms total)
T2074 000:389 JLINK_WriteReg(R1, 0x00000400)  returns 0x00 (0000ms, 0261ms total)
T2074 000:389 JLINK_WriteReg(R2, 0x000000FF)  returns 0x00 (0000ms, 0261ms total)
T2074 000:389 JLINK_WriteReg(R3, 0x00000000)  returns 0x00 (0000ms, 0261ms total)
T2074 000:389 JLINK_WriteReg(R4, 0x00000000)  returns 0x00 (0000ms, 0261ms total)
T2074 000:389 JLINK_WriteReg(R5, 0x00000000)  returns 0x00 (0000ms, 0261ms total)
T2074 000:389 JLINK_WriteReg(R6, 0x00000000)  returns 0x00 (0000ms, 0261ms total)
T2074 000:389 JLINK_WriteReg(R7, 0x00000000)  returns 0x00 (0000ms, 0261ms total)
T2074 000:389 JLINK_WriteReg(R8, 0x00000000)  returns 0x00 (0000ms, 0261ms total)
T2074 000:389 JLINK_WriteReg(R9, 0x20000254)  returns 0x00 (0000ms, 0261ms total)
T2074 000:389 JLINK_WriteReg(R10, 0x00000000)  returns 0x00 (0000ms, 0261ms total)
T2074 000:389 JLINK_WriteReg(R11, 0x00000000)  returns 0x00 (0000ms, 0261ms total)
T2074 000:389 JLINK_WriteReg(R12, 0x00000000)  returns 0x00 (0000ms, 0261ms total)
T2074 000:389 JLINK_WriteReg(R13, 0x20000800)  returns 0x00 (0000ms, 0261ms total)
T2074 000:389 JLINK_WriteReg(R14, 0x20000001)  returns 0x00 (0000ms, 0261ms total)
T2074 000:389 JLINK_WriteReg(R15, 0x200001F2)  returns 0x00 (0000ms, 0261ms total)
T2074 000:389 JLINK_WriteReg(XPSR, 0x01000000)  returns 0x00 (0000ms, 0261ms total)
T2074 000:389 JLINK_WriteReg(MSP, 0x20000800)  returns 0x00 (0000ms, 0261ms total)
T2074 000:389 JLINK_WriteReg(PSP, 0x20000800)  returns 0x00 (0000ms, 0261ms total)
T2074 000:389 JLINK_WriteReg(CFBP, 0x00000000)  returns 0x00 (0000ms, 0261ms total)
T2074 000:389 JLINK_SetBPEx(Addr = 0x20000000, Type = 0xFFFFFFF2)  returns 0x00000003 (0000ms, 0261ms total)
T2074 000:389 JLINK_Go() (0002ms, 0263ms total)
T2074 000:391 JLINK_IsHalted() -- CPU_ReadMem(2 bytes @ 0x20000000)  returns TRUE (0006ms, 0269ms total)
T2074 000:397 JLINK_ReadReg(R15)  returns 0x20000000 (0000ms, 0263ms total)
T2074 000:397 JLINK_ClrBPEx(BPHandle = 0x00000003)  returns 0x00 (0000ms, 0263ms total)
T2074 000:397 JLINK_ReadReg(R0)  returns 0x00000000 (0000ms, 0263ms total)
T2074 000:398 JLINK_WriteReg(R0, 0x00028800)  returns 0x00 (0000ms, 0263ms total)
T2074 000:398 JLINK_WriteReg(R1, 0x00000400)  returns 0x00 (0000ms, 0263ms total)
T2074 000:398 JLINK_WriteReg(R2, 0x000000FF)  returns 0x00 (0000ms, 0263ms total)
T2074 000:398 JLINK_WriteReg(R3, 0x00000000)  returns 0x00 (0000ms, 0263ms total)
T2074 000:398 JLINK_WriteReg(R4, 0x00000000)  returns 0x00 (0000ms, 0263ms total)
T2074 000:398 JLINK_WriteReg(R5, 0x00000000)  returns 0x00 (0000ms, 0263ms total)
T2074 000:398 JLINK_WriteReg(R6, 0x00000000)  returns 0x00 (0000ms, 0263ms total)
T2074 000:398 JLINK_WriteReg(R7, 0x00000000)  returns 0x00 (0000ms, 0263ms total)
T2074 000:398 JLINK_WriteReg(R8, 0x00000000)  returns 0x00 (0000ms, 0263ms total)
T2074 000:398 JLINK_WriteReg(R9, 0x20000254)  returns 0x00 (0000ms, 0263ms total)
T2074 000:398 JLINK_WriteReg(R10, 0x00000000)  returns 0x00 (0000ms, 0263ms total)
T2074 000:398 JLINK_WriteReg(R11, 0x00000000)  returns 0x00 (0000ms, 0263ms total)
T2074 000:398 JLINK_WriteReg(R12, 0x00000000)  returns 0x00 (0000ms, 0263ms total)
T2074 000:398 JLINK_WriteReg(R13, 0x20000800)  returns 0x00 (0000ms, 0263ms total)
T2074 000:398 JLINK_WriteReg(R14, 0x20000001)  returns 0x00 (0000ms, 0263ms total)
T2074 000:398 JLINK_WriteReg(R15, 0x200001F2)  returns 0x00 (0000ms, 0263ms total)
T2074 000:398 JLINK_WriteReg(XPSR, 0x01000000)  returns 0x00 (0000ms, 0263ms total)
T2074 000:398 JLINK_WriteReg(MSP, 0x20000800)  returns 0x00 (0000ms, 0263ms total)
T2074 000:398 JLINK_WriteReg(PSP, 0x20000800)  returns 0x00 (0000ms, 0263ms total)
T2074 000:398 JLINK_WriteReg(CFBP, 0x00000000)  returns 0x00 (0000ms, 0263ms total)
T2074 000:398 JLINK_SetBPEx(Addr = 0x20000000, Type = 0xFFFFFFF2)  returns 0x00000004 (0000ms, 0263ms total)
T2074 000:398 JLINK_Go() (0002ms, 0265ms total)
T2074 000:401 JLINK_IsHalted() -- CPU_ReadMem(2 bytes @ 0x20000000)  returns TRUE (0005ms, 0271ms total)
T2074 000:407 JLINK_ReadReg(R15)  returns 0x20000000 (0000ms, 0266ms total)
T2074 000:407 JLINK_ClrBPEx(BPHandle = 0x00000004)  returns 0x00 (0000ms, 0266ms total)
T2074 000:407 JLINK_ReadReg(R0)  returns 0x00000000 (0000ms, 0266ms total)
T2074 000:407 JLINK_WriteReg(R0, 0x00028C00)  returns 0x00 (0000ms, 0266ms total)
T2074 000:407 JLINK_WriteReg(R1, 0x00000400)  returns 0x00 (0000ms, 0266ms total)
T2074 000:407 JLINK_WriteReg(R2, 0x000000FF)  returns 0x00 (0000ms, 0266ms total)
T2074 000:407 JLINK_WriteReg(R3, 0x00000000)  returns 0x00 (0000ms, 0266ms total)
T2074 000:407 JLINK_WriteReg(R4, 0x00000000)  returns 0x00 (0000ms, 0266ms total)
T2074 000:407 JLINK_WriteReg(R5, 0x00000000)  returns 0x00 (0000ms, 0266ms total)
T2074 000:407 JLINK_WriteReg(R6, 0x00000000)  returns 0x00 (0000ms, 0266ms total)
T2074 000:407 JLINK_WriteReg(R7, 0x00000000)  returns 0x00 (0000ms, 0266ms total)
T2074 000:407 JLINK_WriteReg(R8, 0x00000000)  returns 0x00 (0000ms, 0266ms total)
T2074 000:407 JLINK_WriteReg(R9, 0x20000254)  returns 0x00 (0000ms, 0266ms total)
T2074 000:407 JLINK_WriteReg(R10, 0x00000000)  returns 0x00 (0000ms, 0266ms total)
T2074 000:407 JLINK_WriteReg(R11, 0x00000000)  returns 0x00 (0000ms, 0266ms total)
T2074 000:407 JLINK_WriteReg(R12, 0x00000000)  returns 0x00 (0000ms, 0266ms total)
T2074 000:407 JLINK_WriteReg(R13, 0x20000800)  returns 0x00 (0000ms, 0266ms total)
T2074 000:407 JLINK_WriteReg(R14, 0x20000001)  returns 0x00 (0000ms, 0266ms total)
T2074 000:407 JLINK_WriteReg(R15, 0x200001F2)  returns 0x00 (0000ms, 0266ms total)
T2074 000:407 JLINK_WriteReg(XPSR, 0x01000000)  returns 0x00 (0000ms, 0266ms total)
T2074 000:407 JLINK_WriteReg(MSP, 0x20000800)  returns 0x00 (0000ms, 0266ms total)
T2074 000:407 JLINK_WriteReg(PSP, 0x20000800)  returns 0x00 (0000ms, 0266ms total)
T2074 000:407 JLINK_WriteReg(CFBP, 0x00000000)  returns 0x00 (0000ms, 0266ms total)
T2074 000:407 JLINK_SetBPEx(Addr = 0x20000000, Type = 0xFFFFFFF2)  returns 0x00000005 (0000ms, 0266ms total)
T2074 000:407 JLINK_Go() (0003ms, 0269ms total)
T2074 000:410 JLINK_IsHalted() -- CPU_ReadMem(2 bytes @ 0x20000000)  returns TRUE (0006ms, 0275ms total)
T2074 000:416 JLINK_ReadReg(R15)  returns 0x20000000 (0000ms, 0269ms total)
T2074 000:416 JLINK_ClrBPEx(BPHandle = 0x00000005)  returns 0x00 (0000ms, 0269ms total)
T2074 000:416 JLINK_ReadReg(R0)  returns 0x00000000 (0000ms, 0269ms total)
T2074 000:416 JLINK_WriteReg(R0, 0x00029000)  returns 0x00 (0000ms, 0269ms total)
T2074 000:416 JLINK_WriteReg(R1, 0x00000400)  returns 0x00 (0000ms, 0269ms total)
T2074 000:416 JLINK_WriteReg(R2, 0x000000FF)  returns 0x00 (0000ms, 0269ms total)
T2074 000:416 JLINK_WriteReg(R3, 0x00000000)  returns 0x00 (0000ms, 0269ms total)
T2074 000:416 JLINK_WriteReg(R4, 0x00000000)  returns 0x00 (0000ms, 0269ms total)
T2074 000:416 JLINK_WriteReg(R5, 0x00000000)  returns 0x00 (0000ms, 0269ms total)
T2074 000:416 JLINK_WriteReg(R6, 0x00000000)  returns 0x00 (0000ms, 0269ms total)
T2074 000:416 JLINK_WriteReg(R7, 0x00000000)  returns 0x00 (0000ms, 0269ms total)
T2074 000:416 JLINK_WriteReg(R8, 0x00000000)  returns 0x00 (0000ms, 0269ms total)
T2074 000:416 JLINK_WriteReg(R9, 0x20000254)  returns 0x00 (0000ms, 0269ms total)
T2074 000:416 JLINK_WriteReg(R10, 0x00000000)  returns 0x00 (0000ms, 0269ms total)
T2074 000:416 JLINK_WriteReg(R11, 0x00000000)  returns 0x00 (0000ms, 0269ms total)
T2074 000:416 JLINK_WriteReg(R12, 0x00000000)  returns 0x00 (0000ms, 0269ms total)
T2074 000:416 JLINK_WriteReg(R13, 0x20000800)  returns 0x00 (0000ms, 0269ms total)
T2074 000:416 JLINK_WriteReg(R14, 0x20000001)  returns 0x00 (0000ms, 0269ms total)
T2074 000:416 JLINK_WriteReg(R15, 0x200001F2)  returns 0x00 (0000ms, 0269ms total)
T2074 000:416 JLINK_WriteReg(XPSR, 0x01000000)  returns 0x00 (0000ms, 0269ms total)
T2074 000:416 JLINK_WriteReg(MSP, 0x20000800)  returns 0x00 (0000ms, 0269ms total)
T2074 000:416 JLINK_WriteReg(PSP, 0x20000800)  returns 0x00 (0000ms, 0269ms total)
T2074 000:416 JLINK_WriteReg(CFBP, 0x00000000)  returns 0x00 (0000ms, 0269ms total)
T2074 000:416 JLINK_SetBPEx(Addr = 0x20000000, Type = 0xFFFFFFF2)  returns 0x00000006 (0000ms, 0269ms total)
T2074 000:416 JLINK_Go() (0003ms, 0272ms total)
T2074 000:419 JLINK_IsHalted() -- CPU_ReadMem(2 bytes @ 0x20000000)  returns TRUE (0006ms, 0278ms total)
T2074 000:425 JLINK_ReadReg(R15)  returns 0x20000000 (0000ms, 0272ms total)
T2074 000:425 JLINK_ClrBPEx(BPHandle = 0x00000006)  returns 0x00 (0000ms, 0272ms total)
T2074 000:425 JLINK_ReadReg(R0)  returns 0x00000000 (0000ms, 0272ms total)
T2074 000:425 JLINK_WriteReg(R0, 0x00029400)  returns 0x00 (0000ms, 0272ms total)
T2074 000:425 JLINK_WriteReg(R1, 0x00000400)  returns 0x00 (0000ms, 0272ms total)
T2074 000:425 JLINK_WriteReg(R2, 0x000000FF)  returns 0x00 (0000ms, 0272ms total)
T2074 000:425 JLINK_WriteReg(R3, 0x00000000)  returns 0x00 (0000ms, 0272ms total)
T2074 000:425 JLINK_WriteReg(R4, 0x00000000)  returns 0x00 (0000ms, 0272ms total)
T2074 000:425 JLINK_WriteReg(R5, 0x00000000)  returns 0x00 (0000ms, 0272ms total)
T2074 000:425 JLINK_WriteReg(R6, 0x00000000)  returns 0x00 (0000ms, 0272ms total)
T2074 000:425 JLINK_WriteReg(R7, 0x00000000)  returns 0x00 (0000ms, 0272ms total)
T2074 000:425 JLINK_WriteReg(R8, 0x00000000)  returns 0x00 (0000ms, 0272ms total)
T2074 000:425 JLINK_WriteReg(R9, 0x20000254)  returns 0x00 (0000ms, 0272ms total)
T2074 000:425 JLINK_WriteReg(R10, 0x00000000)  returns 0x00 (0000ms, 0272ms total)
T2074 000:425 JLINK_WriteReg(R11, 0x00000000)  returns 0x00 (0000ms, 0272ms total)
T2074 000:425 JLINK_WriteReg(R12, 0x00000000)  returns 0x00 (0000ms, 0272ms total)
T2074 000:425 JLINK_WriteReg(R13, 0x20000800)  returns 0x00 (0000ms, 0272ms total)
T2074 000:425 JLINK_WriteReg(R14, 0x20000001)  returns 0x00 (0000ms, 0272ms total)
T2074 000:425 JLINK_WriteReg(R15, 0x200001F2)  returns 0x00 (0000ms, 0272ms total)
T2074 000:425 JLINK_WriteReg(XPSR, 0x01000000)  returns 0x00 (0000ms, 0272ms total)
T2074 000:425 JLINK_WriteReg(MSP, 0x20000800)  returns 0x00 (0000ms, 0272ms total)
T2074 000:425 JLINK_WriteReg(PSP, 0x20000800)  returns 0x00 (0000ms, 0272ms total)
T2074 000:425 JLINK_WriteReg(CFBP, 0x00000000)  returns 0x00 (0000ms, 0272ms total)
T2074 000:425 JLINK_SetBPEx(Addr = 0x20000000, Type = 0xFFFFFFF2)  returns 0x00000007 (0000ms, 0272ms total)
T2074 000:425 JLINK_Go() (0003ms, 0275ms total)
T2074 000:428 JLINK_IsHalted() -- CPU_ReadMem(2 bytes @ 0x20000000)  returns TRUE (0006ms, 0281ms total)
T2074 000:434 JLINK_ReadReg(R15)  returns 0x20000000 (0000ms, 0275ms total)
T2074 000:434 JLINK_ClrBPEx(BPHandle = 0x00000007)  returns 0x00 (0000ms, 0275ms total)
T2074 000:434 JLINK_ReadReg(R0)  returns 0x00000000 (0000ms, 0275ms total)
T2074 000:434 JLINK_WriteReg(R0, 0x00029800)  returns 0x00 (0000ms, 0275ms total)
T2074 000:434 JLINK_WriteReg(R1, 0x00000400)  returns 0x00 (0000ms, 0275ms total)
T2074 000:434 JLINK_WriteReg(R2, 0x000000FF)  returns 0x00 (0000ms, 0275ms total)
T2074 000:434 JLINK_WriteReg(R3, 0x00000000)  returns 0x00 (0000ms, 0275ms total)
T2074 000:434 JLINK_WriteReg(R4, 0x00000000)  returns 0x00 (0000ms, 0275ms total)
T2074 000:434 JLINK_WriteReg(R5, 0x00000000)  returns 0x00 (0000ms, 0275ms total)
T2074 000:434 JLINK_WriteReg(R6, 0x00000000)  returns 0x00 (0001ms, 0276ms total)
T2074 000:435 JLINK_WriteReg(R7, 0x00000000)  returns 0x00 (0000ms, 0276ms total)
T2074 000:435 JLINK_WriteReg(R8, 0x00000000)  returns 0x00 (0000ms, 0276ms total)
T2074 000:435 JLINK_WriteReg(R9, 0x20000254)  returns 0x00 (0000ms, 0276ms total)
T2074 000:435 JLINK_WriteReg(R10, 0x00000000)  returns 0x00 (0000ms, 0276ms total)
T2074 000:435 JLINK_WriteReg(R11, 0x00000000)  returns 0x00 (0000ms, 0276ms total)
T2074 000:435 JLINK_WriteReg(R12, 0x00000000)  returns 0x00 (0000ms, 0276ms total)
T2074 000:435 JLINK_WriteReg(R13, 0x20000800)  returns 0x00 (0000ms, 0276ms total)
T2074 000:435 JLINK_WriteReg(R14, 0x20000001)  returns 0x00 (0000ms, 0276ms total)
T2074 000:435 JLINK_WriteReg(R15, 0x200001F2)  returns 0x00 (0000ms, 0276ms total)
T2074 000:435 JLINK_WriteReg(XPSR, 0x01000000)  returns 0x00 (0000ms, 0276ms total)
T2074 000:435 JLINK_WriteReg(MSP, 0x20000800)  returns 0x00 (0000ms, 0276ms total)
T2074 000:435 JLINK_WriteReg(PSP, 0x20000800)  returns 0x00 (0000ms, 0276ms total)
T2074 000:435 JLINK_WriteReg(CFBP, 0x00000000)  returns 0x00 (0000ms, 0276ms total)
T2074 000:435 JLINK_SetBPEx(Addr = 0x20000000, Type = 0xFFFFFFF2)  returns 0x00000008 (0000ms, 0276ms total)
T2074 000:435 JLINK_Go() (0002ms, 0278ms total)
T2074 000:437 JLINK_IsHalted() -- CPU_ReadMem(2 bytes @ 0x20000000)  returns TRUE (0006ms, 0284ms total)
T2074 000:443 JLINK_ReadReg(R15)  returns 0x20000000 (0000ms, 0278ms total)
T2074 000:443 JLINK_ClrBPEx(BPHandle = 0x00000008)  returns 0x00 (0000ms, 0278ms total)
T2074 000:443 JLINK_ReadReg(R0)  returns 0x00000000 (0000ms, 0278ms total)
T2074 000:446 JLINK_WriteReg(R0, 0x00029C00)  returns 0x00 (0000ms, 0278ms total)
T2074 000:446 JLINK_WriteReg(R1, 0x00000400)  returns 0x00 (0000ms, 0278ms total)
T2074 000:446 JLINK_WriteReg(R2, 0x000000FF)  returns 0x00 (0000ms, 0278ms total)
T2074 000:446 JLINK_WriteReg(R3, 0x00000000)  returns 0x00 (0000ms, 0278ms total)
T2074 000:446 JLINK_WriteReg(R4, 0x00000000)  returns 0x00 (0000ms, 0278ms total)
T2074 000:446 JLINK_WriteReg(R5, 0x00000000)  returns 0x00 (0000ms, 0278ms total)
T2074 000:446 JLINK_WriteReg(R6, 0x00000000)  returns 0x00 (0000ms, 0278ms total)
T2074 000:446 JLINK_WriteReg(R7, 0x00000000)  returns 0x00 (0000ms, 0278ms total)
T2074 000:446 JLINK_WriteReg(R8, 0x00000000)  returns 0x00 (0000ms, 0278ms total)
T2074 000:446 JLINK_WriteReg(R9, 0x20000254)  returns 0x00 (0000ms, 0278ms total)
T2074 000:446 JLINK_WriteReg(R10, 0x00000000)  returns 0x00 (0000ms, 0278ms total)
T2074 000:446 JLINK_WriteReg(R11, 0x00000000)  returns 0x00 (0000ms, 0278ms total)
T2074 000:446 JLINK_WriteReg(R12, 0x00000000)  returns 0x00 (0000ms, 0278ms total)
T2074 000:446 JLINK_WriteReg(R13, 0x20000800)  returns 0x00 (0000ms, 0278ms total)
T2074 000:446 JLINK_WriteReg(R14, 0x20000001)  returns 0x00 (0000ms, 0278ms total)
T2074 000:446 JLINK_WriteReg(R15, 0x200001F2)  returns 0x00 (0000ms, 0278ms total)
T2074 000:446 JLINK_WriteReg(XPSR, 0x01000000)  returns 0x00 (0000ms, 0278ms total)
T2074 000:446 JLINK_WriteReg(MSP, 0x20000800)  returns 0x00 (0000ms, 0278ms total)
T2074 000:446 JLINK_WriteReg(PSP, 0x20000800)  returns 0x00 (0000ms, 0278ms total)
T2074 000:446 JLINK_WriteReg(CFBP, 0x00000000)  returns 0x00 (0000ms, 0278ms total)
T2074 000:446 JLINK_SetBPEx(Addr = 0x20000000, Type = 0xFFFFFFF2)  returns 0x00000009 (0000ms, 0278ms total)
T2074 000:446 JLINK_Go() (0003ms, 0281ms total)
T2074 000:449 JLINK_IsHalted() -- CPU_ReadMem(2 bytes @ 0x20000000)  returns TRUE (0006ms, 0287ms total)
T2074 000:455 JLINK_ReadReg(R15)  returns 0x20000000 (0000ms, 0281ms total)
T2074 000:455 JLINK_ClrBPEx(BPHandle = 0x00000009)  returns 0x00 (0000ms, 0281ms total)
T2074 000:455 JLINK_ReadReg(R0)  returns 0x00000000 (0000ms, 0281ms total)
T2074 000:455 JLINK_WriteReg(R0, 0x0002A000)  returns 0x00 (0000ms, 0281ms total)
T2074 000:455 JLINK_WriteReg(R1, 0x00000400)  returns 0x00 (0000ms, 0281ms total)
T2074 000:455 JLINK_WriteReg(R2, 0x000000FF)  returns 0x00 (0001ms, 0282ms total)
T2074 000:456 JLINK_WriteReg(R3, 0x00000000)  returns 0x00 (0000ms, 0282ms total)
T2074 000:456 JLINK_WriteReg(R4, 0x00000000)  returns 0x00 (0000ms, 0282ms total)
T2074 000:456 JLINK_WriteReg(R5, 0x00000000)  returns 0x00 (0000ms, 0282ms total)
T2074 000:456 JLINK_WriteReg(R6, 0x00000000)  returns 0x00 (0000ms, 0282ms total)
T2074 000:456 JLINK_WriteReg(R7, 0x00000000)  returns 0x00 (0000ms, 0282ms total)
T2074 000:456 JLINK_WriteReg(R8, 0x00000000)  returns 0x00 (0000ms, 0282ms total)
T2074 000:456 JLINK_WriteReg(R9, 0x20000254)  returns 0x00 (0000ms, 0282ms total)
T2074 000:456 JLINK_WriteReg(R10, 0x00000000)  returns 0x00 (0000ms, 0282ms total)
T2074 000:456 JLINK_WriteReg(R11, 0x00000000)  returns 0x00 (0000ms, 0282ms total)
T2074 000:456 JLINK_WriteReg(R12, 0x00000000)  returns 0x00 (0000ms, 0282ms total)
T2074 000:456 JLINK_WriteReg(R13, 0x20000800)  returns 0x00 (0000ms, 0282ms total)
T2074 000:456 JLINK_WriteReg(R14, 0x20000001)  returns 0x00 (0000ms, 0282ms total)
T2074 000:456 JLINK_WriteReg(R15, 0x200001F2)  returns 0x00 (0000ms, 0282ms total)
T2074 000:456 JLINK_WriteReg(XPSR, 0x01000000)  returns 0x00 (0000ms, 0282ms total)
T2074 000:456 JLINK_WriteReg(MSP, 0x20000800)  returns 0x00 (0000ms, 0282ms total)
T2074 000:456 JLINK_WriteReg(PSP, 0x20000800)  returns 0x00 (0000ms, 0282ms total)
T2074 000:456 JLINK_WriteReg(CFBP, 0x00000000)  returns 0x00 (0000ms, 0282ms total)
T2074 000:456 JLINK_SetBPEx(Addr = 0x20000000, Type = 0xFFFFFFF2)  returns 0x0000000A (0000ms, 0282ms total)
T2074 000:456 JLINK_Go() (0002ms, 0284ms total)
T2074 000:458 JLINK_IsHalted()  returns FALSE (0001ms, 0285ms total)
T2074 000:509 JLINK_IsHalted() -- CPU_ReadMem(2 bytes @ 0x20000000)  returns TRUE (0006ms, 0290ms total)
T2074 000:515 JLINK_ReadReg(R15)  returns 0x20000000 (0000ms, 0284ms total)
T2074 000:515 JLINK_ClrBPEx(BPHandle = 0x0000000A)  returns 0x00 (0000ms, 0284ms total)
T2074 000:515 JLINK_ReadReg(R0)  returns 0x00000000 (0000ms, 0284ms total)
T2074 000:515 JLINK_WriteReg(R0, 0x0002A400)  returns 0x00 (0000ms, 0284ms total)
T2074 000:515 JLINK_WriteReg(R1, 0x00000400)  returns 0x00 (0000ms, 0284ms total)
T2074 000:515 JLINK_WriteReg(R2, 0x000000FF)  returns 0x00 (0000ms, 0284ms total)
T2074 000:515 JLINK_WriteReg(R3, 0x00000000)  returns 0x00 (0000ms, 0284ms total)
T2074 000:515 JLINK_WriteReg(R4, 0x00000000)  returns 0x00 (0000ms, 0284ms total)
T2074 000:515 JLINK_WriteReg(R5, 0x00000000)  returns 0x00 (0000ms, 0284ms total)
T2074 000:515 JLINK_WriteReg(R6, 0x00000000)  returns 0x00 (0000ms, 0284ms total)
T2074 000:515 JLINK_WriteReg(R7, 0x00000000)  returns 0x00 (0000ms, 0284ms total)
T2074 000:515 JLINK_WriteReg(R8, 0x00000000)  returns 0x00 (0000ms, 0284ms total)
T2074 000:515 JLINK_WriteReg(R9, 0x20000254)  returns 0x00 (0001ms, 0285ms total)
T2074 000:516 JLINK_WriteReg(R10, 0x00000000)  returns 0x00 (0000ms, 0285ms total)
T2074 000:516 JLINK_WriteReg(R11, 0x00000000)  returns 0x00 (0000ms, 0285ms total)
T2074 000:516 JLINK_WriteReg(R12, 0x00000000)  returns 0x00 (0000ms, 0285ms total)
T2074 000:516 JLINK_WriteReg(R13, 0x20000800)  returns 0x00 (0000ms, 0285ms total)
T2074 000:516 JLINK_WriteReg(R14, 0x20000001)  returns 0x00 (0000ms, 0285ms total)
T2074 000:516 JLINK_WriteReg(R15, 0x200001F2)  returns 0x00 (0000ms, 0285ms total)
T2074 000:516 JLINK_WriteReg(XPSR, 0x01000000)  returns 0x00 (0000ms, 0285ms total)
T2074 000:516 JLINK_WriteReg(MSP, 0x20000800)  returns 0x00 (0000ms, 0285ms total)
T2074 000:516 JLINK_WriteReg(PSP, 0x20000800)  returns 0x00 (0000ms, 0285ms total)
T2074 000:516 JLINK_WriteReg(CFBP, 0x00000000)  returns 0x00 (0000ms, 0285ms total)
T2074 000:516 JLINK_SetBPEx(Addr = 0x20000000, Type = 0xFFFFFFF2)  returns 0x0000000B (0000ms, 0285ms total)
T2074 000:516 JLINK_Go() (0002ms, 0287ms total)
T2074 000:518 JLINK_IsHalted() -- CPU_ReadMem(2 bytes @ 0x20000000)  returns TRUE (0006ms, 0293ms total)
T2074 000:524 JLINK_ReadReg(R15)  returns 0x20000000 (0000ms, 0287ms total)
T2074 000:524 JLINK_ClrBPEx(BPHandle = 0x0000000B)  returns 0x00 (0000ms, 0287ms total)
T2074 000:524 JLINK_ReadReg(R0)  returns 0x00000000 (0000ms, 0287ms total)
T2074 000:525 JLINK_WriteReg(R0, 0x0002A800)  returns 0x00 (0000ms, 0287ms total)
T2074 000:525 JLINK_WriteReg(R1, 0x00000400)  returns 0x00 (0000ms, 0287ms total)
T2074 000:525 JLINK_WriteReg(R2, 0x000000FF)  returns 0x00 (0000ms, 0287ms total)
T2074 000:525 JLINK_WriteReg(R3, 0x00000000)  returns 0x00 (0000ms, 0287ms total)
T2074 000:525 JLINK_WriteReg(R4, 0x00000000)  returns 0x00 (0000ms, 0287ms total)
T2074 000:525 JLINK_WriteReg(R5, 0x00000000)  returns 0x00 (0000ms, 0287ms total)
T2074 000:525 JLINK_WriteReg(R6, 0x00000000)  returns 0x00 (0000ms, 0287ms total)
T2074 000:525 JLINK_WriteReg(R7, 0x00000000)  returns 0x00 (0000ms, 0287ms total)
T2074 000:525 JLINK_WriteReg(R8, 0x00000000)  returns 0x00 (0000ms, 0287ms total)
T2074 000:525 JLINK_WriteReg(R9, 0x20000254)  returns 0x00 (0000ms, 0287ms total)
T2074 000:525 JLINK_WriteReg(R10, 0x00000000)  returns 0x00 (0000ms, 0287ms total)
T2074 000:525 JLINK_WriteReg(R11, 0x00000000)  returns 0x00 (0000ms, 0287ms total)
T2074 000:525 JLINK_WriteReg(R12, 0x00000000)  returns 0x00 (0000ms, 0287ms total)
T2074 000:525 JLINK_WriteReg(R13, 0x20000800)  returns 0x00 (0000ms, 0287ms total)
T2074 000:525 JLINK_WriteReg(R14, 0x20000001)  returns 0x00 (0000ms, 0287ms total)
T2074 000:525 JLINK_WriteReg(R15, 0x200001F2)  returns 0x00 (0000ms, 0287ms total)
T2074 000:525 JLINK_WriteReg(XPSR, 0x01000000)  returns 0x00 (0000ms, 0287ms total)
T2074 000:525 JLINK_WriteReg(MSP, 0x20000800)  returns 0x00 (0000ms, 0287ms total)
T2074 000:525 JLINK_WriteReg(PSP, 0x20000800)  returns 0x00 (0000ms, 0287ms total)
T2074 000:525 JLINK_WriteReg(CFBP, 0x00000000)  returns 0x00 (0000ms, 0287ms total)
T2074 000:525 JLINK_SetBPEx(Addr = 0x20000000, Type = 0xFFFFFFF2)  returns 0x0000000C (0000ms, 0287ms total)
T2074 000:525 JLINK_Go() (0002ms, 0289ms total)
T2074 000:527 JLINK_IsHalted() -- CPU_ReadMem(2 bytes @ 0x20000000)  returns TRUE (0006ms, 0295ms total)
T2074 000:533 JLINK_ReadReg(R15)  returns 0x20000000 (0000ms, 0289ms total)
T2074 000:533 JLINK_ClrBPEx(BPHandle = 0x0000000C)  returns 0x00 (0000ms, 0289ms total)
T2074 000:533 JLINK_ReadReg(R0)  returns 0x00000000 (0000ms, 0289ms total)
T2074 000:534 JLINK_WriteReg(R0, 0x0002AC00)  returns 0x00 (0000ms, 0289ms total)
T2074 000:534 JLINK_WriteReg(R1, 0x00000400)  returns 0x00 (0000ms, 0289ms total)
T2074 000:534 JLINK_WriteReg(R2, 0x000000FF)  returns 0x00 (0000ms, 0289ms total)
T2074 000:534 JLINK_WriteReg(R3, 0x00000000)  returns 0x00 (0000ms, 0289ms total)
T2074 000:534 JLINK_WriteReg(R4, 0x00000000)  returns 0x00 (0000ms, 0289ms total)
T2074 000:534 JLINK_WriteReg(R5, 0x00000000)  returns 0x00 (0000ms, 0289ms total)
T2074 000:534 JLINK_WriteReg(R6, 0x00000000)  returns 0x00 (0000ms, 0289ms total)
T2074 000:534 JLINK_WriteReg(R7, 0x00000000)  returns 0x00 (0000ms, 0289ms total)
T2074 000:534 JLINK_WriteReg(R8, 0x00000000)  returns 0x00 (0000ms, 0289ms total)
T2074 000:534 JLINK_WriteReg(R9, 0x20000254)  returns 0x00 (0000ms, 0289ms total)
T2074 000:534 JLINK_WriteReg(R10, 0x00000000)  returns 0x00 (0000ms, 0289ms total)
T2074 000:534 JLINK_WriteReg(R11, 0x00000000)  returns 0x00 (0000ms, 0289ms total)
T2074 000:534 JLINK_WriteReg(R12, 0x00000000)  returns 0x00 (0000ms, 0289ms total)
T2074 000:534 JLINK_WriteReg(R13, 0x20000800)  returns 0x00 (0000ms, 0289ms total)
T2074 000:534 JLINK_WriteReg(R14, 0x20000001)  returns 0x00 (0000ms, 0289ms total)
T2074 000:534 JLINK_WriteReg(R15, 0x200001F2)  returns 0x00 (0000ms, 0289ms total)
T2074 000:534 JLINK_WriteReg(XPSR, 0x01000000)  returns 0x00 (0000ms, 0289ms total)
T2074 000:534 JLINK_WriteReg(MSP, 0x20000800)  returns 0x00 (0000ms, 0289ms total)
T2074 000:534 JLINK_WriteReg(PSP, 0x20000800)  returns 0x00 (0000ms, 0289ms total)
T2074 000:534 JLINK_WriteReg(CFBP, 0x00000000)  returns 0x00 (0000ms, 0289ms total)
T2074 000:534 JLINK_SetBPEx(Addr = 0x20000000, Type = 0xFFFFFFF2)  returns 0x0000000D (0000ms, 0289ms total)
T2074 000:534 JLINK_Go() (0003ms, 0292ms total)
T2074 000:537 JLINK_IsHalted() -- CPU_ReadMem(2 bytes @ 0x20000000)  returns TRUE (0006ms, 0298ms total)
T2074 000:543 JLINK_ReadReg(R15)  returns 0x20000000 (0000ms, 0292ms total)
T2074 000:543 JLINK_ClrBPEx(BPHandle = 0x0000000D)  returns 0x00 (0000ms, 0292ms total)
T2074 000:543 JLINK_ReadReg(R0)  returns 0x00000000 (0000ms, 0292ms total)
T2074 000:544 JLINK_WriteReg(R0, 0x0002B000)  returns 0x00 (0000ms, 0292ms total)
T2074 000:544 JLINK_WriteReg(R1, 0x00000400)  returns 0x00 (0000ms, 0292ms total)
T2074 000:544 JLINK_WriteReg(R2, 0x000000FF)  returns 0x00 (0000ms, 0292ms total)
T2074 000:544 JLINK_WriteReg(R3, 0x00000000)  returns 0x00 (0000ms, 0292ms total)
T2074 000:544 JLINK_WriteReg(R4, 0x00000000)  returns 0x00 (0000ms, 0292ms total)
T2074 000:544 JLINK_WriteReg(R5, 0x00000000)  returns 0x00 (0000ms, 0292ms total)
T2074 000:544 JLINK_WriteReg(R6, 0x00000000)  returns 0x00 (0000ms, 0292ms total)
T2074 000:544 JLINK_WriteReg(R7, 0x00000000)  returns 0x00 (0000ms, 0292ms total)
T2074 000:544 JLINK_WriteReg(R8, 0x00000000)  returns 0x00 (0000ms, 0292ms total)
T2074 000:544 JLINK_WriteReg(R9, 0x20000254)  returns 0x00 (0000ms, 0292ms total)
T2074 000:544 JLINK_WriteReg(R10, 0x00000000)  returns 0x00 (0000ms, 0292ms total)
T2074 000:544 JLINK_WriteReg(R11, 0x00000000)  returns 0x00 (0000ms, 0292ms total)
T2074 000:544 JLINK_WriteReg(R12, 0x00000000)  returns 0x00 (0000ms, 0292ms total)
T2074 000:544 JLINK_WriteReg(R13, 0x20000800)  returns 0x00 (0000ms, 0292ms total)
T2074 000:544 JLINK_WriteReg(R14, 0x20000001)  returns 0x00 (0000ms, 0292ms total)
T2074 000:544 JLINK_WriteReg(R15, 0x200001F2)  returns 0x00 (0000ms, 0292ms total)
T2074 000:544 JLINK_WriteReg(XPSR, 0x01000000)  returns 0x00 (0000ms, 0292ms total)
T2074 000:544 JLINK_WriteReg(MSP, 0x20000800)  returns 0x00 (0000ms, 0292ms total)
T2074 000:544 JLINK_WriteReg(PSP, 0x20000800)  returns 0x00 (0000ms, 0292ms total)
T2074 000:544 JLINK_WriteReg(CFBP, 0x00000000)  returns 0x00 (0000ms, 0292ms total)
T2074 000:544 JLINK_SetBPEx(Addr = 0x20000000, Type = 0xFFFFFFF2)  returns 0x0000000E (0000ms, 0292ms total)
T2074 000:544 JLINK_Go() (0002ms, 0294ms total)
T2074 000:546 JLINK_IsHalted() -- CPU_ReadMem(2 bytes @ 0x20000000)  returns TRUE (0006ms, 0300ms total)
T2074 000:552 JLINK_ReadReg(R15)  returns 0x20000000 (0000ms, 0294ms total)
T2074 000:552 JLINK_ClrBPEx(BPHandle = 0x0000000E)  returns 0x00 (0000ms, 0294ms total)
T2074 000:552 JLINK_ReadReg(R0)  returns 0x00000000 (0000ms, 0294ms total)
T2074 000:563 JLINK_WriteReg(R0, 0x0002B400)  returns 0x00 (0000ms, 0294ms total)
T2074 000:563 JLINK_WriteReg(R1, 0x00000400)  returns 0x00 (0000ms, 0294ms total)
T2074 000:563 JLINK_WriteReg(R2, 0x000000FF)  returns 0x00 (0000ms, 0294ms total)
T2074 000:563 JLINK_WriteReg(R3, 0x00000000)  returns 0x00 (0000ms, 0294ms total)
T2074 000:563 JLINK_WriteReg(R4, 0x00000000)  returns 0x00 (0000ms, 0294ms total)
T2074 000:563 JLINK_WriteReg(R5, 0x00000000)  returns 0x00 (0000ms, 0294ms total)
T2074 000:563 JLINK_WriteReg(R6, 0x00000000)  returns 0x00 (0000ms, 0294ms total)
T2074 000:563 JLINK_WriteReg(R7, 0x00000000)  returns 0x00 (0000ms, 0294ms total)
T2074 000:563 JLINK_WriteReg(R8, 0x00000000)  returns 0x00 (0000ms, 0294ms total)
T2074 000:563 JLINK_WriteReg(R9, 0x20000254)  returns 0x00 (0000ms, 0294ms total)
T2074 000:563 JLINK_WriteReg(R10, 0x00000000)  returns 0x00 (0000ms, 0294ms total)
T2074 000:563 JLINK_WriteReg(R11, 0x00000000)  returns 0x00 (0000ms, 0294ms total)
T2074 000:563 JLINK_WriteReg(R12, 0x00000000)  returns 0x00 (0001ms, 0295ms total)
T2074 000:564 JLINK_WriteReg(R13, 0x20000800)  returns 0x00 (0000ms, 0295ms total)
T2074 000:564 JLINK_WriteReg(R14, 0x20000001)  returns 0x00 (0000ms, 0295ms total)
T2074 000:564 JLINK_WriteReg(R15, 0x200001F2)  returns 0x00 (0000ms, 0295ms total)
T2074 000:564 JLINK_WriteReg(XPSR, 0x01000000)  returns 0x00 (0000ms, 0295ms total)
T2074 000:564 JLINK_WriteReg(MSP, 0x20000800)  returns 0x00 (0000ms, 0295ms total)
T2074 000:564 JLINK_WriteReg(PSP, 0x20000800)  returns 0x00 (0000ms, 0295ms total)
T2074 000:564 JLINK_WriteReg(CFBP, 0x00000000)  returns 0x00 (0000ms, 0295ms total)
T2074 000:564 JLINK_SetBPEx(Addr = 0x20000000, Type = 0xFFFFFFF2)  returns 0x0000000F (0000ms, 0295ms total)
T2074 000:564 JLINK_Go() (0002ms, 0297ms total)
T2074 000:566 JLINK_IsHalted() -- CPU_ReadMem(2 bytes @ 0x20000000)  returns TRUE (0006ms, 0303ms total)
T2074 000:572 JLINK_ReadReg(R15)  returns 0x20000000 (0000ms, 0297ms total)
T2074 000:572 JLINK_ClrBPEx(BPHandle = 0x0000000F)  returns 0x00 (0000ms, 0297ms total)
T2074 000:572 JLINK_ReadReg(R0)  returns 0x00000000 (0000ms, 0297ms total)
T2074 000:573 JLINK_WriteReg(R0, 0x00000001)  returns 0x00 (0000ms, 0297ms total)
T2074 000:573 JLINK_WriteReg(R1, 0x00000400)  returns 0x00 (0000ms, 0297ms total)
T2074 000:573 JLINK_WriteReg(R2, 0x000000FF)  returns 0x00 (0000ms, 0297ms total)
T2074 000:573 JLINK_WriteReg(R3, 0x00000000)  returns 0x00 (0000ms, 0297ms total)
T2074 000:573 JLINK_WriteReg(R4, 0x00000000)  returns 0x00 (0000ms, 0297ms total)
T2074 000:573 JLINK_WriteReg(R5, 0x00000000)  returns 0x00 (0000ms, 0297ms total)
T2074 000:573 JLINK_WriteReg(R6, 0x00000000)  returns 0x00 (0000ms, 0297ms total)
T2074 000:573 JLINK_WriteReg(R7, 0x00000000)  returns 0x00 (0000ms, 0297ms total)
T2074 000:573 JLINK_WriteReg(R8, 0x00000000)  returns 0x00 (0000ms, 0297ms total)
T2074 000:573 JLINK_WriteReg(R9, 0x20000254)  returns 0x00 (0000ms, 0297ms total)
T2074 000:573 JLINK_WriteReg(R10, 0x00000000)  returns 0x00 (0000ms, 0297ms total)
T2074 000:573 JLINK_WriteReg(R11, 0x00000000)  returns 0x00 (0000ms, 0297ms total)
T2074 000:573 JLINK_WriteReg(R12, 0x00000000)  returns 0x00 (0000ms, 0297ms total)
T2074 000:573 JLINK_WriteReg(R13, 0x20000800)  returns 0x00 (0000ms, 0297ms total)
T2074 000:573 JLINK_WriteReg(R14, 0x20000001)  returns 0x00 (0000ms, 0297ms total)
T2074 000:573 JLINK_WriteReg(R15, 0x20000062)  returns 0x00 (0000ms, 0297ms total)
T2074 000:573 JLINK_WriteReg(XPSR, 0x01000000)  returns 0x00 (0000ms, 0297ms total)
T2074 000:573 JLINK_WriteReg(MSP, 0x20000800)  returns 0x00 (0000ms, 0297ms total)
T2074 000:573 JLINK_WriteReg(PSP, 0x20000800)  returns 0x00 (0000ms, 0297ms total)
T2074 000:573 JLINK_WriteReg(CFBP, 0x00000000)  returns 0x00 (0000ms, 0297ms total)
T2074 000:573 JLINK_SetBPEx(Addr = 0x20000000, Type = 0xFFFFFFF2)  returns 0x00000010 (0000ms, 0297ms total)
T2074 000:573 JLINK_Go() (0002ms, 0299ms total)
T2074 000:575 JLINK_IsHalted() -- CPU_ReadMem(2 bytes @ 0x20000000)  returns TRUE (0006ms, 0305ms total)
T2074 000:581 JLINK_ReadReg(R15)  returns 0x20000000 (0000ms, 0299ms total)
T2074 000:581 JLINK_ClrBPEx(BPHandle = 0x00000010)  returns 0x00 (0000ms, 0299ms total)
T2074 000:581 JLINK_ReadReg(R0)  returns 0x00000000 (0000ms, 0299ms total)
T2074 000:640 JLINK_WriteMem(0x20000000, 0x0258 Bytes, ...) -- Data:  00 BE 0A E0 0D 78 2D 06 68 40 08 24 40 00 00 D3 ... -- CPU_WriteMem(600 bytes @ 0x20000000)  returns 0x258 (0008ms, 0307ms total)
T2074 000:648 JLINK_WriteReg(R0, 0x00000000)  returns 0x00 (0000ms, 0307ms total)
T2074 000:648 JLINK_WriteReg(R1, 0x00F42400)  returns 0x00 (0000ms, 0307ms total)
T2074 000:648 JLINK_WriteReg(R2, 0x00000002)  returns 0x00 (0000ms, 0307ms total)
T2074 000:648 JLINK_WriteReg(R3, 0x00000000)  returns 0x00 (0000ms, 0307ms total)
T2074 000:648 JLINK_WriteReg(R4, 0x00000000)  returns 0x00 (0000ms, 0307ms total)
T2074 000:648 JLINK_WriteReg(R5, 0x00000000)  returns 0x00 (0000ms, 0307ms total)
T2074 000:648 JLINK_WriteReg(R6, 0x00000000)  returns 0x00 (0000ms, 0307ms total)
T2074 000:648 JLINK_WriteReg(R7, 0x00000000)  returns 0x00 (0000ms, 0307ms total)
T2074 000:648 JLINK_WriteReg(R8, 0x00000000)  returns 0x00 (0000ms, 0307ms total)
T2074 000:648 JLINK_WriteReg(R9, 0x20000254)  returns 0x00 (0000ms, 0307ms total)
T2074 000:648 JLINK_WriteReg(R10, 0x00000000)  returns 0x00 (0000ms, 0307ms total)
T2074 000:648 JLINK_WriteReg(R11, 0x00000000)  returns 0x00 (0000ms, 0307ms total)
T2074 000:648 JLINK_WriteReg(R12, 0x00000000)  returns 0x00 (0000ms, 0307ms total)
T2074 000:648 JLINK_WriteReg(R13, 0x20000800)  returns 0x00 (0000ms, 0307ms total)
T2074 000:648 JLINK_WriteReg(R14, 0x20000001)  returns 0x00 (0000ms, 0307ms total)
T2074 000:648 JLINK_WriteReg(R15, 0x20000028)  returns 0x00 (0000ms, 0307ms total)
T2074 000:648 JLINK_WriteReg(XPSR, 0x01000000)  returns 0x00 (0000ms, 0307ms total)
T2074 000:648 JLINK_WriteReg(MSP, 0x20000800)  returns 0x00 (0000ms, 0307ms total)
T2074 000:648 JLINK_WriteReg(PSP, 0x20000800)  returns 0x00 (0000ms, 0307ms total)
T2074 000:648 JLINK_WriteReg(CFBP, 0x00000000)  returns 0x00 (0000ms, 0307ms total)
T2074 000:648 JLINK_SetBPEx(Addr = 0x20000000, Type = 0xFFFFFFF2) -- CPU_ReadMem(2 bytes @ 0x20000000)  returns 0x00000011 (0001ms, 0308ms total)
T2074 000:649 JLINK_Go() -- CPU_WriteMem(2 bytes @ 0x20000000) (0003ms, 0311ms total)
T2074 000:652 JLINK_IsHalted() -- CPU_ReadMem(2 bytes @ 0x20000000)  returns TRUE (0006ms, 0317ms total)
T2074 000:658 JLINK_ReadReg(R15)  returns 0x20000000 (0000ms, 0311ms total)
T2074 000:658 JLINK_ClrBPEx(BPHandle = 0x00000011)  returns 0x00 (0000ms, 0311ms total)
T2074 000:658 JLINK_ReadReg(R0)  returns 0x00000000 (0000ms, 0311ms total)
T2074 000:659 JLINK_WriteMem(0x20000258, 0x01A8 Bytes, ...) -- Data:  E8 31 00 20 CD 86 02 00 DF 86 02 00 E1 86 02 00 ... -- CPU_WriteMem(424 bytes @ 0x20000258)  returns 0x1A8 (0005ms, 0316ms total)
T2074 000:664 JLINK_WriteMem(0x20000400, 0x0258 Bytes, ...) -- Data:  40 1E 00 BF 00 BF 00 BF 00 BF 00 BF 00 BF 00 BF ... -- CPU_WriteMem(600 bytes @ 0x20000400)  returns 0x258 (0007ms, 0323ms total)
T2074 000:671 JLINK_WriteReg(R0, 0x00028000)  returns 0x00 (0000ms, 0323ms total)
T2074 000:671 JLINK_WriteReg(R1, 0x00000400)  returns 0x00 (0000ms, 0323ms total)
T2074 000:671 JLINK_WriteReg(R2, 0x20000258)  returns 0x00 (0000ms, 0323ms total)
T2074 000:671 JLINK_WriteReg(R3, 0x00000000)  returns 0x00 (0000ms, 0323ms total)
T2074 000:671 JLINK_WriteReg(R4, 0x00000000)  returns 0x00 (0000ms, 0323ms total)
T2074 000:671 JLINK_WriteReg(R5, 0x00000000)  returns 0x00 (0000ms, 0323ms total)
T2074 000:671 JLINK_WriteReg(R6, 0x00000000)  returns 0x00 (0000ms, 0323ms total)
T2074 000:671 JLINK_WriteReg(R7, 0x00000000)  returns 0x00 (0000ms, 0323ms total)
T2074 000:671 JLINK_WriteReg(R8, 0x00000000)  returns 0x00 (0000ms, 0323ms total)
T2074 000:671 JLINK_WriteReg(R9, 0x20000254)  returns 0x00 (0000ms, 0323ms total)
T2074 000:671 JLINK_WriteReg(R10, 0x00000000)  returns 0x00 (0000ms, 0323ms total)
T2074 000:671 JLINK_WriteReg(R11, 0x00000000)  returns 0x00 (0000ms, 0323ms total)
T2074 000:671 JLINK_WriteReg(R12, 0x00000000)  returns 0x00 (0000ms, 0323ms total)
T2074 000:671 JLINK_WriteReg(R13, 0x20000800)  returns 0x00 (0000ms, 0323ms total)
T2074 000:671 JLINK_WriteReg(R14, 0x20000001)  returns 0x00 (0000ms, 0323ms total)
T2074 000:671 JLINK_WriteReg(R15, 0x20000130)  returns 0x00 (0001ms, 0324ms total)
T2074 000:672 JLINK_WriteReg(XPSR, 0x01000000)  returns 0x00 (0000ms, 0324ms total)
T2074 000:672 JLINK_WriteReg(MSP, 0x20000800)  returns 0x00 (0000ms, 0324ms total)
T2074 000:672 JLINK_WriteReg(PSP, 0x20000800)  returns 0x00 (0000ms, 0324ms total)
T2074 000:672 JLINK_WriteReg(CFBP, 0x00000000)  returns 0x00 (0000ms, 0324ms total)
T2074 000:672 JLINK_SetBPEx(Addr = 0x20000000, Type = 0xFFFFFFF2)  returns 0x00000012 (0000ms, 0324ms total)
T2074 000:672 JLINK_Go() (0002ms, 0326ms total)
T2074 000:674 JLINK_IsHalted()  returns FALSE (0001ms, 0327ms total)
T2074 000:725 JLINK_IsHalted() -- CPU_ReadMem(2 bytes @ 0x20000000)  returns TRUE (0005ms, 0331ms total)
T2074 000:730 JLINK_ReadReg(R15)  returns 0x20000000 (0000ms, 0326ms total)
T2074 000:731 JLINK_ClrBPEx(BPHandle = 0x00000012)  returns 0x00 (0000ms, 0327ms total)
T2074 000:731 JLINK_ReadReg(R0)  returns 0x00000000 (0000ms, 0327ms total)
T2074 000:731 JLINK_WriteMem(0x20000258, 0x01A8 Bytes, ...) -- Data:  53 2E 04 D0 55 2E 3D D0 58 2E 41 D1 3D E0 0C 98 ... -- CPU_WriteMem(424 bytes @ 0x20000258)  returns 0x1A8 (0005ms, 0332ms total)
T2074 000:736 JLINK_WriteMem(0x20000400, 0x0258 Bytes, ...) -- Data:  00 90 01 B0 08 BC 04 B0 18 47 0F B4 38 B5 04 46 ... -- CPU_WriteMem(600 bytes @ 0x20000400)  returns 0x258 (0007ms, 0339ms total)
T2074 000:743 JLINK_WriteReg(R0, 0x00028400)  returns 0x00 (0000ms, 0339ms total)
T2074 000:743 JLINK_WriteReg(R1, 0x00000400)  returns 0x00 (0000ms, 0339ms total)
T2074 000:743 JLINK_WriteReg(R2, 0x20000258)  returns 0x00 (0000ms, 0339ms total)
T2074 000:743 JLINK_WriteReg(R3, 0x00000000)  returns 0x00 (0000ms, 0339ms total)
T2074 000:743 JLINK_WriteReg(R4, 0x00000000)  returns 0x00 (0000ms, 0339ms total)
T2074 000:743 JLINK_WriteReg(R5, 0x00000000)  returns 0x00 (0000ms, 0339ms total)
T2074 000:743 JLINK_WriteReg(R6, 0x00000000)  returns 0x00 (0000ms, 0339ms total)
T2074 000:743 JLINK_WriteReg(R7, 0x00000000)  returns 0x00 (0000ms, 0339ms total)
T2074 000:743 JLINK_WriteReg(R8, 0x00000000)  returns 0x00 (0000ms, 0339ms total)
T2074 000:743 JLINK_WriteReg(R9, 0x20000254)  returns 0x00 (0000ms, 0339ms total)
T2074 000:743 JLINK_WriteReg(R10, 0x00000000)  returns 0x00 (0000ms, 0339ms total)
T2074 000:743 JLINK_WriteReg(R11, 0x00000000)  returns 0x00 (0000ms, 0339ms total)
T2074 000:743 JLINK_WriteReg(R12, 0x00000000)  returns 0x00 (0000ms, 0339ms total)
T2074 000:743 JLINK_WriteReg(R13, 0x20000800)  returns 0x00 (0000ms, 0339ms total)
T2074 000:743 JLINK_WriteReg(R14, 0x20000001)  returns 0x00 (0000ms, 0339ms total)
T2074 000:743 JLINK_WriteReg(R15, 0x20000130)  returns 0x00 (0000ms, 0339ms total)
T2074 000:743 JLINK_WriteReg(XPSR, 0x01000000)  returns 0x00 (0000ms, 0339ms total)
T2074 000:743 JLINK_WriteReg(MSP, 0x20000800)  returns 0x00 (0000ms, 0339ms total)
T2074 000:743 JLINK_WriteReg(PSP, 0x20000800)  returns 0x00 (0000ms, 0339ms total)
T2074 000:743 JLINK_WriteReg(CFBP, 0x00000000)  returns 0x00 (0000ms, 0339ms total)
T2074 000:743 JLINK_SetBPEx(Addr = 0x20000000, Type = 0xFFFFFFF2)  returns 0x00000013 (0000ms, 0339ms total)
T2074 000:743 JLINK_Go() (0003ms, 0342ms total)
T2074 000:746 JLINK_IsHalted()  returns FALSE (0001ms, 0343ms total)
T2074 000:797 JLINK_IsHalted() -- CPU_ReadMem(2 bytes @ 0x20000000)  returns TRUE (0005ms, 0347ms total)
T2074 000:802 JLINK_ReadReg(R15)  returns 0x20000000 (0000ms, 0342ms total)
T2074 000:802 JLINK_ClrBPEx(BPHandle = 0x00000013)  returns 0x00 (0000ms, 0342ms total)
T2074 000:802 JLINK_ReadReg(R0)  returns 0x00000000 (0000ms, 0342ms total)
T2074 000:803 JLINK_WriteMem(0x20000258, 0x01A8 Bytes, ...) -- Data:  0D 46 01 26 0A E0 20 46 64 1E 00 28 04 DB 7D 20 ... -- CPU_WriteMem(424 bytes @ 0x20000258)  returns 0x1A8 (0005ms, 0347ms total)
T2074 000:808 JLINK_WriteMem(0x20000400, 0x0258 Bytes, ...) -- Data:  10 BD 10 B5 11 20 00 F0 E1 FC 01 20 00 04 D5 49 ... -- CPU_WriteMem(600 bytes @ 0x20000400)  returns 0x258 (0007ms, 0354ms total)
T2074 000:815 JLINK_WriteReg(R0, 0x00028800)  returns 0x00 (0000ms, 0354ms total)
T2074 000:815 JLINK_WriteReg(R1, 0x00000400)  returns 0x00 (0000ms, 0354ms total)
T2074 000:815 JLINK_WriteReg(R2, 0x20000258)  returns 0x00 (0000ms, 0354ms total)
T2074 000:815 JLINK_WriteReg(R3, 0x00000000)  returns 0x00 (0000ms, 0354ms total)
T2074 000:815 JLINK_WriteReg(R4, 0x00000000)  returns 0x00 (0000ms, 0354ms total)
T2074 000:815 JLINK_WriteReg(R5, 0x00000000)  returns 0x00 (0000ms, 0354ms total)
T2074 000:815 JLINK_WriteReg(R6, 0x00000000)  returns 0x00 (0000ms, 0354ms total)
T2074 000:815 JLINK_WriteReg(R7, 0x00000000)  returns 0x00 (0000ms, 0354ms total)
